"Freq [GHz]","dB(S(1,1)) []","dB(S(2,1)) []"
1,-37.5375332554788,-0.163038735906488
1.001,-37.5331101112381,-0.163165876526026
1.002,-37.5286695390091,-0.163293108737878
1.003,-37.5242114856971,-0.163420432441218
1.004,-37.5197358985737,-0.163547847535143
1.005,-37.5152427252806,-0.163675353918699
1.006,-37.5107319138333,-0.163802951490859
1.007,-37.5062034126246,-0.16393064015053
1.008,-37.501657170429,-0.164058419796557
1.009,-37.4970931364055,-0.164186290327723
1.01,-37.4925112601024,-0.164314251642738
1.011,-37.4879114914599,-0.164442303640257
1.012,-37.4832937808146,-0.164570446218867
1.013,-37.478658078903,-0.164698679277088
1.014,-37.4740043368647,-0.164827002713379
1.015,-37.4693325062467,-0.164955416426139
1.016,-37.4646425390065,-0.165083920313698
1.017,-37.459934387516,-0.165212514274324
1.018,-37.455208004565,-0.165341198206225
1.019,-37.4504633433648,-0.165469972007541
1.02,-37.4457003575517,-0.16559883557635
1.021,-37.4409190011906,-0.16572778881067
1.022,-37.4361192287785,-0.165856831608458
1.023,-37.4313009952479,-0.165985963867602
1.024,-37.4264642559705,-0.166115185485934
1.025,-37.4216089667605,-0.16624449636122
1.026,-37.4167350838779,-0.166373896391162
1.027,-37.4118425640323,-0.166503385473409
1.028,-37.406931364386,-0.166632963505545
1.029,-37.4020014425574,-0.166762630385082
1.03,-37.3970527566246,-0.166892386009481
1.031,-37.3920852651283,-0.16702223027615
1.032,-37.3870989270754,-0.167152163082413
1.033,-37.3820937019424,-0.167282184325554
1.034,-37.3770695496783,-0.167412293902785
1.035,-37.3720264307081,-0.167542491711264
1.036,-37.3669643059359,-0.167672777648082
1.037,-37.3618831367482,-0.167803151610278
1.038,-37.3567828850168,-0.167933613494822
1.039,-37.3516635131024,-0.168064163198631
1.04,-37.3465249838572,-0.168194800618562
1.041,-37.3413672606282,-0.168325525651405
1.042,-37.3361903072603,-0.168456338193898
1.043,-37.3309940880994,-0.168587238142718
1.044,-37.3257785679951,-0.168718225394489
1.045,-37.3205437123039,-0.168849299845759
1.046,-37.3152894868921,-0.168980461393038
1.047,-37.3100158581388,-0.169111709932764
1.048,-37.3047227929385,-0.169243045361315
1.049,-37.2994102587043,-0.169374467575023
1.05,-37.2940782233703,-0.169505976470152
1.051,-37.288726655395,-0.169637571942914
1.052,-37.2833555237635,-0.169769253889455
1.053,-37.2779647979904,-0.169901022205872
1.054,-37.2725544481227,-0.170032876788205
1.055,-37.267124444742,-0.17016481753243
1.056,-37.2616747589678,-0.170296844334468
1.057,-37.2562053624595,-0.170428957090185
1.058,-37.2507162274192,-0.170561155695392
1.059,-37.2452073265942,-0.170693440045838
1.06,-37.2396786332798,-0.170825810037223
1.061,-37.234130121321,-0.170958265565181
1.062,-37.2285617651159,-0.171090806525298
1.063,-37.2229735396172,-0.171223432813104
1.064,-37.2173654203353,-0.171356144324067
1.065,-37.2117373833401,-0.171488940953607
1.066,-37.2060894052635,-0.171621822597085
1.067,-37.2004214633016,-0.171754789149803
1.068,-37.1947335352171,-0.171887840507017
1.069,-37.1890255993412,-0.172020976563919
1.07,-37.1832976345759,-0.172154197215654
1.071,-37.1775496203959,-0.172287502357305
1.072,-37.1717815368511,-0.172420891883911
1.073,-37.1659933645681,-0.172554365690441
1.074,-37.1601850847526,-0.172687923671829
1.075,-37.1543566791911,-0.172821565722943
1.076,-37.1485081302529,-0.172955291738599
1.077,-37.1426394208921,-0.17308910161356
1.078,-37.1367505346492,-0.173222995242539
1.079,-37.1308414556529,-0.17335697252019
1.08,-37.1249121686222,-0.17349103334112
1.081,-37.1189626588675,-0.173625177599883
1.082,-37.112992912293,-0.173759405190972
1.083,-37.1070029153977,-0.173893716008839
1.084,-37.1009926552773,-0.174028109947877
1.085,-37.0949621196257,-0.174162586902427
1.086,-37.0889112967366,-0.174297146766785
1.087,-37.0828401755047,-0.174431789435183
1.088,-37.0767487454275,-0.174566514801812
1.089,-37.0706369966061,-0.174701322760811
1.09,-37.0645049197474,-0.174836213206259
1.091,-37.0583525061644,-0.174971186032196
1.092,-37.0521797477783,-0.175106241132604
1.093,-37.0459866371193,-0.175241378401415
1.094,-37.0397731673276,-0.17537659773251
1.095,-37.0335393321551,-0.17551189901972
1.096,-37.0272851259659,-0.175647282156832
1.097,-37.0210105437377,-0.175782747037576
1.098,-37.0147155810625,-0.175918293555635
1.099,-37.0084002341478,-0.176053921604639
1.1,-37.0020644998175,-0.176189631078172
1.101,-36.9957083755126,-0.176325421869773
1.102,-36.9893318592921,-0.176461293872928
1.103,-36.9829349498338,-0.176597246981067
1.104,-36.9765176464348,-0.176733281087584
1.105,-36.9700799490128,-0.176869396085815
1.106,-36.9636218581058,-0.177005591869052
1.107,-36.9571433748737,-0.177141868330542
1.108,-36.950644501098,-0.17727822536348
1.109,-36.9441252391828,-0.177414662861011
1.11,-36.9375855921551,-0.177551180716236
1.111,-36.9310255636654,-0.177687778822209
1.112,-36.9244451579876,-0.177824457071938
1.113,-36.9178443800199,-0.177961215358379
1.114,-36.9112232352847,-0.178098053574446
1.115,-36.9045817299288,-0.178234971613003
1.116,-36.897919870724,-0.178371969366874
1.117,-36.8912376650668,-0.178509046728825
1.118,-36.8845351209786,-0.178646203591591
1.119,-36.877812247106,-0.178783439847847
1.12,-36.8710690527206,-0.178920755390234
1.121,-36.8643055477188,-0.179058150111339
1.122,-36.857521742622,-0.179195623903709
1.123,-36.8507176485765,-0.179333176659842
1.124,-36.8438932773529,-0.179470808272195
1.125,-36.8370486413465,-0.17960851863318
1.126,-36.8301837535764,-0.179746307635157
1.127,-36.8232986276858,-0.179884175170457
1.128,-36.816393277941,-0.180022121131349
1.129,-36.8094677192315,-0.180160145410072
1.13,-36.8025219670694,-0.180298247898815
1.131,-36.7955560375889,-0.180436428489723
1.132,-36.7885699475456,-0.180574687074903
1.133,-36.7815637143163,-0.180713023546406
1.134,-36.7745373558979,-0.18085143779626
1.135,-36.7674908909072,-0.180989929716436
1.136,-36.7604243385797,-0.181128499198862
1.137,-36.7533377187693,-0.181267146135433
1.138,-36.7462310519472,-0.18140587041799
1.139,-36.739104359201,-0.181544671938341
1.14,-36.7319576622343,-0.181683550588253
1.141,-36.7247909833649,-0.181822506259443
1.142,-36.7176043455247,-0.181961538843596
1.143,-36.7103977722582,-0.182100648232345
1.144,-36.7031712877214,-0.182239834317296
1.145,-36.6959249166809,-0.182379096989999
1.146,-36.6886586845126,-0.182518436141978
1.147,-36.6813726172005,-0.182657851664701
1.148,-36.6740667413358,-0.182797343449612
1.149,-36.6667410841148,-0.182936911388105
1.15,-36.6593956733385,-0.183076555371539
1.151,-36.6520305374106,-0.183216275291223
1.152,-36.6446457053365,-0.183356071038438
1.153,-36.6372412067214,-0.183495942504427
1.154,-36.6298170717691,-0.183635889580385
1.155,-36.6223733312806,-0.183775912157471
1.156,-36.6149100166521,-0.183916010126807
1.157,-36.6074271598737,-0.18405618337948
1.158,-36.5999247935276,-0.184196431806533
1.159,-36.5924029507865,-0.184336755298971
1.16,-36.5848616654118,-0.184477153747767
1.161,-36.5773009717516,-0.184617627043848
1.162,-36.5697209047393,-0.184758175078111
1.163,-36.5621214998915,-0.184898797741413
1.164,-36.554502793306,-0.185039494924575
1.165,-36.54686482166,-0.185180266518376
1.166,-36.5392076222082,-0.185321112413568
1.167,-36.5315312327806,-0.185462032500853
1.168,-36.5238356917803,-0.185603026670915
1.169,-36.5161210381821,-0.185744094814383
1.17,-36.5083873115293,-0.185885236821867
1.171,-36.5006345519325,-0.186026452583928
1.172,-36.4928628000669,-0.186167741991095
1.173,-36.48507209717,-0.186309104933873
1.174,-36.4772624850398,-0.186450541302715
1.175,-36.4694340060317,-0.186592050988048
1.176,-36.461586703057,-0.186733633880268
1.177,-36.4537206195798,-0.186875289869729
1.178,-36.445835799615,-0.187017018846753
1.179,-36.4379322877258,-0.187158820701633
1.18,-36.430010129021,-0.187300695324623
1.181,-36.4220693691526,-0.187442642605942
1.182,-36.4141100543132,-0.187584662435781
1.183,-36.4061322312335,-0.187726754704299
1.184,-36.3981359471796,-0.187868919301609
1.185,-36.3901212499503,-0.188011156117813
1.186,-36.3820881878744,-0.188153465042957
1.187,-36.374036809808,-0.188295845967075
1.188,-36.3659671651319,-0.188438298780152
1.189,-36.3578793037486,-0.188580823372157
1.19,-36.3497732760794,-0.188723419633016
1.191,-36.3416491330619,-0.188866087452628
1.192,-36.3335069261467,-0.189008826720858
1.193,-36.3253467072948,-0.18915163732754
1.194,-36.3171685289746,-0.189294519162487
1.195,-36.3089724441589,-0.189437472115468
1.196,-36.3007585063217,-0.189580496076227
1.197,-36.2925267694355,-0.189723590934477
1.198,-36.2842772879681,-0.189866756579906
1.199,-36.2760101168795,-0.190009992902166
1.2,-36.2677253116187,-0.190153299790879
1.201,-36.2594229281208,-0.190296677135647
1.202,-36.2511030228037,-0.190440124826031
1.203,-36.2427656525649,-0.19058364275157
1.204,-36.2344108747782,-0.190727230801772
1.205,-36.2260387472908,-0.190870888866118
1.206,-36.2176493284196,-0.191014616834062
1.207,-36.2092426769481,-0.191158414595026
1.208,-36.2008188521234,-0.191302282038407
1.209,-36.1923779136521,-0.191446219053571
1.21,-36.1839199216978,-0.191590225529863
1.211,-36.1754449368772,-0.191734301356594
1.212,-36.1669530202569,-0.191878446423056
1.213,-36.1584442333497,-0.192022660618508
1.214,-36.1499186381116,-0.192166943832178
1.215,-36.1413762969379,-0.192311295953279
1.216,-36.1328172726601,-0.192455716870993
1.217,-36.124241628542,-0.192600206474474
1.218,-36.1156494282767,-0.192744764652855
1.219,-36.1070407359824,-0.192889391295235
1.22,-36.0984156161993,-0.193034086290698
1.221,-36.089774133886,-0.193178849528302
1.222,-36.0811163544156,-0.193323680897065
1.223,-36.0724423435725,-0.193468580286008
1.224,-36.0637521675483,-0.193613547584101
1.225,-36.0550458929386,-0.193758582680302
1.226,-36.046323586739,-0.193903685463545
1.227,-36.0375853163418,-0.194048855822744
1.228,-36.0288311495317,-0.194194093646781
1.229,-36.0200611544828,-0.19433939882452
1.23,-36.0112753997542,-0.194484771244796
1.231,-36.0024739542868,-0.194630210796433
1.232,-35.9936568873993,-0.194775717368219
1.233,-35.9848242687845,-0.194921290848934
1.234,-35.9759761685055,-0.195066931127323
1.235,-35.9671126569918,-0.195212638092115
1.236,-35.9582338050357,-0.195358411632018
1.237,-35.9493396837884,-0.195504251635712
1.238,-35.9404303647562,-0.195650157991869
1.239,-35.9315059197965,-0.195796130589129
1.24,-35.9225664211143,-0.195942169316113
1.241,-35.9136119412581,-0.19608827406142
1.242,-35.9046425531161,-0.196234444713639
1.243,-35.8956583299122,-0.196380681161325
1.244,-35.8866593452024,-0.196526983293026
1.245,-35.8776456728707,-0.196673350997258
1.246,-35.8686173871252,-0.196819784162528
1.247,-35.8595745624946,-0.196966282677314
1.248,-35.8505172738235,-0.197112846430088
1.249,-35.8414455962693,-0.197259475309289
1.25,-35.8323596052979,-0.197406169203351
1.251,-35.8232593766797,-0.197552928000679
1.252,-35.8141449864859,-0.197699751589668
1.253,-35.8050165110844,-0.197846639858687
1.254,-35.795874027136,-0.19799359269609
1.255,-35.7867176115904,-0.198140609990224
1.256,-35.7775473416822,-0.198287691629405
1.257,-35.768363294927,-0.19843483750194
1.258,-35.7591655491176,-0.198582047496115
1.259,-35.7499541823198,-0.198729321500202
1.26,-35.7407292728686,-0.198876659402458
1.261,-35.7314908993642,-0.199024061091122
1.262,-35.722239140668,-0.199171526454419
1.263,-35.712974075899,-0.199319055380558
1.264,-35.7036957844294,-0.199466647757724
1.265,-35.6944043458806,-0.199614303474106
1.266,-35.6850998401198,-0.199762022417862
1.267,-35.6757823472556,-0.199909804477146
1.268,-35.6664519476342,-0.200057649540085
1.269,-35.6571087218353,-0.200205557494807
1.27,-35.6477527506684,-0.20035352822941
1.271,-35.6383841151689,-0.200501561631996
1.272,-35.6290028965937,-0.200649657590643
1.273,-35.6196091764178,-0.200797815993416
1.274,-35.61020303633,-0.200946036728368
1.275,-35.6007845582294,-0.20109431968354
1.276,-35.5913538242209,-0.201242664746963
1.277,-35.5819109166117,-0.201391071806652
1.278,-35.5724559179074,-0.201539540750615
1.279,-35.5629889108078,-0.201688071466841
1.28,-35.5535099782033,-0.201836663843312
1.281,-35.5440192031708,-0.201985317768001
1.282,-35.53451666897,-0.202134033128863
1.283,-35.5250024590395,-0.202282809813852
1.284,-35.5154766569926,-0.202431647710902
1.285,-35.5059393466138,-0.202580546707944
1.286,-35.496390611855,-0.202729506692891
1.287,-35.4868305368313,-0.202878527553656
1.288,-35.4772592058175,-0.203027609178135
1.289,-35.4676767032439,-0.203176751454215
1.29,-35.4580831136929,-0.203325954269781
1.291,-35.448478521895,-0.2034752175127
1.292,-35.4388630127249,-0.203624541070839
1.293,-35.4292366711978,-0.203773924832046
1.294,-35.4195995824656,-0.203923368684176
1.295,-35.4099518318133,-0.204072872515057
1.296,-35.400293504655,-0.204222436212527
1.297,-35.3906246865302,-0.204372059664407
1.298,-35.3809454631002,-0.204521742758513
1.299,-35.3712559201442,-0.204671485382657
1.3,-35.3615561435558,-0.204821287424637
1.301,-35.351846219339,-0.204971148772255
1.302,-35.3421262336048,-0.205121069313292
1.303,-35.3323962725675,-0.205271048935542
1.304,-35.3226564225408,-0.205421087526782
1.305,-35.3129067699344,-0.205571184974778
1.306,-35.3031474012503,-0.205721341167302
1.307,-35.293378403079,-0.205871555992123
1.308,-35.2835998620963,-0.206021829336988
1.309,-35.2738118650592,-0.206172161089661
1.31,-35.2640144988028,-0.206322551137887
1.311,-35.2542078502364,-0.206472999369411
1.312,-35.2443920063402,-0.206623505671974
1.313,-35.2345670541616,-0.206774069933318
1.314,-35.2247330808116,-0.206924692041176
1.315,-35.2148901734616,-0.207075371883283
1.316,-35.2050384193398,-0.207226109347366
1.317,-35.1951779057275,-0.207376904321153
1.318,-35.1853087199559,-0.207527756692369
1.319,-35.1754309494026,-0.207678666348738
1.32,-35.1655446814884,-0.20782963317798
1.321,-35.1556500036734,-0.207980657067813
1.322,-35.145747003454,-0.20813173790596
1.323,-35.1358357683595,-0.208282875580137
1.324,-35.1259163859486,-0.208434069978057
1.325,-35.1159889438062,-0.208585320987441
1.326,-35.10605352954,-0.208736628496006
1.327,-35.0961102307775,-0.208887992391468
1.328,-35.086159135162,-0.209039412561538
1.329,-35.0762003303503,-0.209190888893934
1.33,-35.0662339040088,-0.209342421276384
1.331,-35.0562599438104,-0.209494009596594
1.332,-35.0462785374314,-0.209645653742292
1.333,-35.0362897725483,-0.209797353601198
1.334,-35.0262937368346,-0.209949109061035
1.335,-35.0162905179578,-0.210100920009526
1.336,-35.0062802035759,-0.210252786334406
1.337,-34.9962628813348,-0.210404707923401
1.338,-34.9862386388649,-0.210556684664242
1.339,-34.9762075637778,-0.210708716444669
1.34,-34.9661697436641,-0.210860803152422
1.341,-34.9561252660893,-0.211012944675238
1.342,-34.9460742185917,-0.211165140900873
1.343,-34.9360166886789,-0.211317391717076
1.344,-34.9259527638249,-0.211469697011597
1.345,-34.9158825314673,-0.211622056672205
1.346,-34.9058060790044,-0.211774470586651
1.347,-34.895723493792,-0.211926938642719
1.348,-34.885634863141,-0.212079460728181
1.349,-34.8755402743141,-0.212232036730816
1.35,-34.8654398145231,-0.212384666538412
1.351,-34.8553335709262,-0.212537350038762
1.352,-34.8452216306251,-0.212690087119663
1.353,-34.8351040806622,-0.212842877668924
1.354,-34.824981008018,-0.212995721574359
1.355,-34.814852499608,-0.21314861872379
1.356,-34.8047186422806,-0.213301569005037
1.357,-34.7945795228138,-0.213454572305945
1.358,-34.7844352279128,-0.213607628514351
1.359,-34.7742858442076,-0.21376073751811
1.36,-34.7641314582497,-0.213913899205081
1.361,-34.7539721565102,-0.214067113463133
1.362,-34.7438080253769,-0.214220380180141
1.363,-34.7336391511517,-0.214373699243995
1.364,-34.7234656200482,-0.214527070542593
1.365,-34.7132875181891,-0.214680493963843
1.366,-34.7031049316038,-0.214833969395655
1.367,-34.6929179462257,-0.214987496725964
1.368,-34.68272664789,-0.215141075842698
1.369,-34.6725311223312,-0.215294706633812
1.37,-34.6623314551807,-0.215448388987263
1.371,-34.6521277319643,-0.215602122791027
1.372,-34.6419200381001,-0.215755907933076
1.373,-34.6317084588958,-0.215909744301411
1.374,-34.6214930795466,-0.21606363178404
1.375,-34.6112739851331,-0.21621757026898
1.376,-34.6010512606186,-0.21637155964426
1.377,-34.5908249908472,-0.216525599797928
1.378,-34.5805952605413,-0.216679690618039
1.379,-34.5703621542996,-0.216833831992666
1.38,-34.5601257565949,-0.216988023809893
1.381,-34.5498861517719,-0.217142265957819
1.382,-34.5396434240449,-0.21729655832456
1.383,-34.5293976574961,-0.21745090079824
1.384,-34.5191489360728,-0.217605293267002
1.385,-34.5088973435863,-0.217759735619005
1.386,-34.498642963709,-0.217914227742424
1.387,-34.4883858799727,-0.218068769525443
1.388,-34.4781261757666,-0.218223360856269
1.389,-34.4678639343355,-0.218378001623124
1.39,-34.4575992387773,-0.218532691714243
1.391,-34.4473321720417,-0.218687431017884
1.392,-34.4370628169279,-0.218842219422314
1.393,-34.4267912560826,-0.21899705681582
1.394,-34.4165175719985,-0.219151943086711
1.395,-34.4062418470124,-0.219306878123306
1.396,-34.3959641633028,-0.21946186181395
1.397,-34.385684602889,-0.219616894047005
1.398,-34.3754032476285,-0.219771974710845
1.399,-34.3651201792158,-0.219927103693867
1.4,-34.3548354791802,-0.220082280884489
1.401,-34.3445492288844,-0.220237506171144
1.402,-34.3342615095228,-0.220392779442292
1.403,-34.3239724021197,-0.220548100586408
1.404,-34.3136819875276,-0.220703469491981
1.405,-34.3033903464257,-0.220858886047534
1.406,-34.2930975593181,-0.2210143501416
1.407,-34.2828037065325,-0.221169861662741
1.408,-34.2725088682184,-0.221325420499531
1.409,-34.2622131243456,-0.221481026540575
1.41,-34.2519165547025,-0.221636679674489
1.411,-34.2416192388951,-0.221792379789928
1.412,-34.2313212563449,-0.221948126775549
1.413,-34.2210226862879,-0.22210392052005
1.414,-34.2107236077729,-0.222259760912135
1.415,-34.2004240996601,-0.222415647840549
1.416,-34.1901242406197,-0.222571581194047
1.417,-34.1798241091308,-0.222727560861412
1.418,-34.1695237834794,-0.222883586731455
1.419,-34.1592233417579,-0.223039658693005
1.42,-34.1489228618628,-0.223195776634916
1.421,-34.1386224214945,-0.223351940446073
1.422,-34.1283220981549,-0.22350815001538
1.423,-34.118021969147,-0.22366440523177
1.424,-34.1077221115733,-0.223820705984204
1.425,-34.0974226023346,-0.223977052161657
1.426,-34.0871235181286,-0.224133443653149
1.427,-34.0768249354492,-0.224289880347708
1.428,-34.0665269305849,-0.224446362134406
1.429,-34.056229579618,-0.224602888902325
1.43,-34.045932958423,-0.224759460540588
1.431,-34.0356371426661,-0.224916076938338
1.432,-34.0253422078036,-0.22507273798475
1.433,-34.015048229081,-0.225229443569026
1.434,-34.0047552815322,-0.225386193580392
1.435,-33.9944634399782,-0.225542987908112
1.436,-33.9841727790259,-0.225699826441473
1.437,-33.9738833730676,-0.225856709069796
1.438,-33.9635952962798,-0.226013635682419
1.439,-33.9533086226222,-0.226170606168729
1.44,-33.9430234258367,-0.226327620418127
1.441,-33.9327397794466,-0.226484678320053
1.442,-33.9224577567558,-0.226641779763976
1.443,-33.9121774308477,-0.226798924639398
1.444,-33.9018988745844,-0.226956112835844
1.445,-33.8916221606061,-0.22711334424288
1.446,-33.8813473613298,-0.227270618750102
1.447,-33.871074548949,-0.227427936247136
1.448,-33.8608037954325,-0.227585296623644
1.449,-33.8505351725238,-0.22774269976931
1.45,-33.8402687517404,-0.227900145573866
1.451,-33.830004604373,-0.228057633927069
1.452,-33.8197428014848,-0.228215164718712
1.453,-33.8094834139106,-0.22837273783862
1.454,-33.7992265122566,-0.228530353176654
1.455,-33.788972166899,-0.228688010622706
1.456,-33.7787204479841,-0.228845710066708
1.457,-33.7684714254272,-0.229003451398627
1.458,-33.7582251689121,-0.229161234508457
1.459,-33.7479817478904,-0.22931905928624
1.46,-33.7377412315812,-0.229476925622039
1.461,-33.7275036889701,-0.229634833405973
1.462,-33.7172691888091,-0.22979278252818
1.463,-33.7070377996157,-0.229950772878838
1.464,-33.6968095896725,-0.23010880434817
1.465,-33.6865846270269,-0.230266876826431
1.466,-33.67636297949,-0.230424990203913
