"Freq [GHz]","dB(S(1,1)) [] - ls1='5mm'","dB(S(1,1)) [] - ls1='10mm'","dB(S(1,1)) [] - ls1='15mm'","dB(S(1,1)) [] - ls1='20mm'","dB(S(1,1)) [] - ls1='25mm'","dB(S(1,1)) [] - ls1='30mm'","dB(S(1,1)) [] - ls1='35mm'","dB(S(1,1)) [] - ls1='40mm'","dB(S(1,1)) [] - ls1='45mm'","dB(S(1,1)) [] - ls1='50mm'","dB(S(1,1)) [] - ls1='55mm'","dB(S(1,1)) [] - ls1='60mm'","dB(S(2,1)) [] - ls1='5mm'","dB(S(2,1)) [] - ls1='10mm'","dB(S(2,1)) [] - ls1='15mm'","dB(S(2,1)) [] - ls1='20mm'","dB(S(2,1)) [] - ls1='25mm'","dB(S(2,1)) [] - ls1='30mm'","dB(S(2,1)) [] - ls1='35mm'","dB(S(2,1)) [] - ls1='40mm'","dB(S(2,1)) [] - ls1='45mm'","dB(S(2,1)) [] - ls1='50mm'","dB(S(2,1)) [] - ls1='55mm'","dB(S(2,1)) [] - ls1='60mm'"
1,-38.7134168785219,-38.4455702814621,-40.5763772428988,-40.9378714604021,-40.085023762356,-38.9763230881918,-37.4468875229993,-37.5375332554788,-36.2201485179683,-39.7021877240847,-38.89455374081,-38.7635075746665,-0.0196996009493857,-0.0389266744778588,-0.0568534683654615,-0.0776554619783118,-0.0971795875688211,-0.118920690917045,-0.154797708484489,-0.163038735906488,-0.198926386312295,-0.217945898872958,-0.224430492022936,-0.220911859144378
1.001,-38.7049723473538,-38.4384130010524,-40.5725897667529,-40.9304130547882,-40.0849027534388,-38.9740690737238,-37.4500576998609,-37.5331101112381,-36.2182047924508,-39.704616903685,-38.8926951682627,-38.7484737247384,-0.0197182270903112,-0.0389501816827616,-0.0568911929425927,-0.0777220254632669,-0.0972522331198465,-0.119021258779271,-0.15488130142337,-0.163165876526026,-0.199057640335876,-0.218090255090022,-0.224609233653865,-0.221158115518155
1.002,-38.6965365873674,-38.4312641250347,-40.5688090564502,-40.9229595103353,-40.0847929980451,-38.9718158147084,-37.4532038565223,-37.5286695390091,-36.2161848201304,-39.7069021049642,-38.8906613709092,-38.733444931338,-0.019736862410727,-0.0389737117757007,-0.0569289523323751,-0.0777886310844033,-0.0973249439064904,-0.119121892065999,-0.154964994513602,-0.163293108737878,-0.199188955569119,-0.218234729838712,-0.224788053370791,-0.221404419946901
1.003,-38.688109583637,-38.4241236414525,-40.5650351109239,-40.9155108159297,-40.0846944763643,-38.9695632623829,-37.4563259361736,-37.5242114856971,-36.2140882895189,-39.709043077164,-38.8884527552655,-38.7184211907951,-0.0197555068932976,-0.038997264754579,-0.0569667465263639,-0.0778552787926913,-0.0973977199063365,-0.119222590692274,-0.155048787768323,-0.163420432441218,-0.199320331857496,-0.218379323057356,-0.224966951197697,-0.221650772223801
1.004,-38.679691321279,-38.416991538377,-40.5612679290935,-40.9080669604734,-40.0846071684564,-38.9673113678444,-37.4594238821389,-37.5197358985737,-36.2119148973999,-39.7110395838183,-38.8860697510746,-38.7034024995683,-0.019774160520701,-0.0390208406172846,-0.0570045755161222,-0.077921968539147,-0.097470561096943,-0.119323354573134,-0.155132681200521,-0.163547847535143,-0.199451769046561,-0.218524034684035,-0.225145927157705,-0.221897172142447
1.005,-38.671281785452,-38.4098678039068,-40.5575075098652,-40.9006279328839,-40.0845310542516,-38.9650600820502,-37.4624976378794,-37.5152427252806,-36.2096643489336,-39.7128914028372,-38.8835128111228,-38.6883888542455,-0.0197928232756379,-0.0390444393616994,-0.0570424392931854,-0.0779887002748106,-0.097543467455853,-0.119424183623628,-0.155216674823044,-0.163675353918699,-0.199583266981933,-0.218668864656556,-0.225324981273062,-0.222143619496826
1.006,-38.6628809613565,-38.4027524261679,-40.5537538521318,-40.8931937220947,-40.0844661135493,-38.9628093558178,-37.4655471469963,-37.5107319138333,-36.2073363577598,-39.714598326588,-38.8807824110467,-38.6733802515441,-0.0198114951408355,-0.0390680609857118,-0.0570803378490948,-0.0780554739507607,-0.0976164389605784,-0.119525077758814,-0.155300768648585,-0.163802951490859,-0.199714825509314,-0.21881381291248,-0.225504113565156,-0.222390114081327
1.007,-38.6544888342346,-38.3956453933137,-40.5500069547729,-40.8857643170547,-40.0844123260177,-38.9605591398256,-37.468572353234,-37.5062034126246,-36.204930646098,-39.7161601619706,-38.8778790491306,-38.658376688312,-0.0198301760990292,-0.0390917054871962,-0.0571182711753805,-0.0781222895181079,-0.097689475588612,-0.119626036893751,-0.155384962689685,-0.16393064015053,-0.199846444474467,-0.218958879389095,-0.225683324054526,-0.222636655690743
1.008,-38.6461053893702,-38.3885466935247,-40.5462668166549,-40.8783397067287,-40.084369671193,-38.958309384613,-37.4715732004825,-37.501657170429,-36.2024469448459,-39.7175767304878,-38.8748032460958,-38.6433781615277,-0.0198488661329844,-0.0391153728640319,-0.057156239263562,-0.0781891469280055,-0.0977625773174239,-0.11972706094351,-0.155469256958749,-0.164058419796557,-0.199978123723242,-0.219104064023435,-0.225862612760853,-0.222883244120259
1.009,-38.6377306120884,-38.3814563150088,-40.5425334366307,-40.8709198800971,-40.0843381284784,-38.9560600405811,-37.4745496327809,-37.4970931364055,-36.1998849936754,-39.7188478683122,-38.8715555448804,-38.628384668301,-0.0198675652254846,-0.0391390631140895,-0.057194242105165,-0.0782560461316316,-0.0978357441244635,-0.119828149823164,-0.15555365146802,-0.164186290327723,-0.20010986310156,-0.21924936675227,-0.22604197970298,-0.223129879165462
1.01,-38.6293644877556,-38.3743742460009,-40.5388068135407,-40.8635048261561,-40.0843176771438,-38.9538110579927,-37.4775015943201,-37.4925112601024,-36.1972445411262,-39.7199734263466,-38.8681365104117,-38.6133962058734,-0.0198862733593289,-0.039162776235237,-0.0572322796916902,-0.0783229870802038,-0.0979089759871488,-0.119929303447791,-0.155638146229596,-0.164314251642738,-0.200241662455413,-0.219394787512102,-0.226221424898894,-0.223376560622332
1.011,-38.6210070017791,-38.3673004747631,-40.5350869462118,-40.8560945339176,-40.084308296325,-38.9515623869731,-37.4804290294455,-37.4879114914599,-36.1945253446966,-39.7209532702805,-38.864546729369,-38.5984127716187,-0.019904990517346,-0.0391865122253396,-0.0572703520146395,-0.078389969724979,-0.0979822728828846,-0.120030521732483,-0.155722741255428,-0.164442303640257,-0.200373521630879,-0.219540326239177,-0.226400948365753,-0.223623288287245
1.012,-38.6126581396075,-38.3602349895843,-40.5313738334583,-40.8486889924091,-40.0843099650225,-38.9493139775101,-37.4833318826607,-37.4832937808146,-36.1917271709326,-39.7217872806418,-38.8607868099395,-38.5834343630438,-0.0199237166823782,-0.0392102710822587,-0.0573084590655085,-0.0784569940172404,-0.0980556347890492,-0.120131804592337,-0.155807436557311,-0.164570446218867,-0.200505440474103,-0.219685982869476,-0.226580550119884,-0.223870061956976
1.013,-38.6043178867296,-38.3531777787803,-40.5276674740815,-40.841288190674,-40.0843226621015,-38.9470657794547,-37.4862100986298,-37.478658078903,-36.1888497955138,-39.7224753528428,-38.8568573815651,-38.5684609777885,-0.0199424518372859,-0.0392340528038473,-0.0573466008357859,-0.0785240599083109,-0.0981290616829962,-0.120233151942458,-0.155892232146891,-0.164698679277088,-0.200637418831311,-0.219831757338708,-0.226760230176779,-0.224116881428689
1.014,-38.5959862286751,-38.3461288306941,-40.5239678668699,-40.8338921177713,-40.0843463662905,-38.9448177425212,-37.4890636221806,-37.4740043368647,-36.1858930033369,-39.7230173972218,-38.8527590946829,-38.5534926136268,-0.0199611959649602,-0.0392578573879623,-0.0573847773169453,-0.0785911673495526,-0.0982025535420603,-0.120334563697951,-0.15597712803567,-0.164827002713379,-0.200769456548807,-0.219977649582331,-0.226939988551109,-0.224363746499935
1.015,-38.5876631510141,-38.3390881336952,-40.5202750105995,-40.826500762776,-40.0843810561812,-38.9425698162879,-37.4918923983077,-37.4693325062467,-36.1828565885967,-39.7234133390792,-38.8484926204571,-38.5385292684673,-0.0199799490483032,-0.0392816848324531,-0.0574229885004665,-0.0786583162923549,-0.0982761103435525,-0.120436039773941,-0.156062124234987,-0.164955416426139,-0.200901553472969,-0.220123659535528,-0.227119825256715,-0.224610656968666
1.016,-38.5793486393569,-38.3320556761798,-40.5165889040333,-40.8191141147785,-40.0844267102271,-38.9403219501975,-37.4946963721753,-37.4646425390065,-36.1797403548639,-39.7236631187093,-38.844058650504,-38.5235709403533,-0.0199987110702443,-0.0393055351351634,-0.057461234377812,-0.0787255066881451,-0.0983497320647562,-0.120537580085551,-0.156147220756039,-0.165083920313698,-0.201033709450255,-0.220269787133213,-0.227299740306641,-0.224857612633222
1.017,-38.5710426793538,-38.325031446571,-40.5129095459221,-40.8117321628851,-40.0844833067433,-38.9380740935573,-37.4974754891203,-37.459934387516,-36.1765441151609,-39.7237666914262,-38.8394578966104,-38.5086176274638,-0.0200174820137228,-0.0393294082939371,-0.0574995149404367,-0.0787927384883896,-0.098423418682936,-0.120639184547921,-0.15623241760986,-0.165212514274324,-0.201165924327198,-0.220416032310042,-0.227479733713101,-0.225104613292324
1.018,-38.562745256695,-38.3180154333182,-40.509236935004,-40.8043548962179,-40.0845508239052,-38.93582619554,-37.5002296946555,-37.455208004565,-36.173267692034,-39.7237240275852,-38.8346910904451,-38.4936693281139,-0.0200362618617137,-0.0393533043066113,-0.057537830179792,-0.0788600116445868,-0.0984971701753356,-0.120740853076192,-0.156317714807344,-0.165341198206225,-0.201298197950419,-0.220562395000402,-0.227659805487509,-0.22535165874509
1.019,-38.5544563571107,-38.3110076248974,-40.5055710700047,-40.7969823039147,-40.0846292397484,-38.9335782051836,-37.502958934472,-37.4504633433648,-36.1699109176235,-39.7235351125984,-38.8297589832629,-38.4787260407557,-0.0200550505972041,-0.0393772231710225,-0.0575761800873247,-0.0789273261082723,-0.098570986519172,-0.12084258558552,-0.156403112359224,-0.165469972007541,-0.201430530166605,-0.220708875138409,-0.227839955640477,-0.225598748791026
1.02,-38.5461759663703,-38.3040080098113,-40.5019119496375,-40.7896143751291,-40.0847185321675,-38.9313300713925,-37.5056631544429,-37.4457003575517,-36.1664736337301,-39.7231999469463,-38.824662345604,-38.4637877639782,-0.0200738482032007,-0.0394011648849975,-0.0576145646544672,-0.0789946818310165,-0.0986448676916426,-0.120944381991063,-0.156488610276081,-0.16559883557635,-0.201562920822529,-0.220855472657917,-0.228020184181815,-0.225845883230016
1.021,-38.537904070283,-38.2970165765888,-40.4982595726035,-40.7822510990304,-40.0848186789153,-38.9290817429376,-37.5083423006259,-37.4409190011906,-36.1629556918794,-39.722718546183,-38.8194019669862,-38.4488544965084,-0.0200926546627321,-0.0394251294463674,-0.0576529838726542,-0.0790620787644224,-0.0987188136699179,-0.121046242207994,-0.156574208568343,-0.16572778881067,-0.201695369765047,-0.221002187492506,-0.228200491120535,-0.226093061862335
1.022,-38.5296406546971,-38.290033313785,-40.4946139375915,-40.7748924648037,-40.0849296576023,-38.9268331684566,-37.5109963192664,-37.4361192287785,-36.1593569533819,-39.7220909409374,-38.8139786555912,-38.4339262372119,-0.0201114699588519,-0.0394491168529534,-0.0576914377332993,-0.0791295168601334,-0.0987928244311516,-0.121148166151491,-0.156659907246286,-0.165856831608458,-0.201827876841091,-0.221149019575488,-0.228380876464867,-0.226340284488641
1.023,-38.5213857055001,-38.2830582099813,-40.4909750432782,-40.7675384616499,-40.0850514456958,-38.9245842964549,-37.5136251568006,-37.4313009952479,-36.1556772893918,-39.7213171769082,-38.8083932379463,-38.4190029850933,-0.0201302940746271,-0.0394731271025751,-0.0577299262278201,-0.0791969960698266,-0.0988668999524708,-0.121250153736746,-0.156745706320029,-0.165985963867602,-0.201960441897669,-0.221295968839909,-0.228561340222243,-0.226587550909973
1.024,-38.5131392086183,-38.2760912537856,-40.4873428883282,-40.7601890787856,-40.0851840205191,-38.9223350753058,-37.5162287598584,-37.4264642559705,-36.151916580961,-39.720397314855,-38.8026465586,-38.4040847392968,-0.0201491269931528,-0.0394971601930476,-0.0577684493476269,-0.0792645163452145,-0.0989410402109776,-0.12135220487896,-0.156831605799536,-0.166115185485934,-0.202093064781878,-0.221443035218544,-0.228741882399325,-0.226834860927761
1.025,-38.5049011500171,-38.2691324338316,-40.4837174713941,-40.7528443054433,-40.0853273592506,-38.9200854532511,-37.5188070752664,-37.4216089667605,-36.1480747190915,-39.7193314305831,-38.7967394797927,-38.3891714991069,-0.0201679686975402,-0.0395212161221838,-0.0578070070841166,-0.0793320776380472,-0.0990152451837566,-0.121454319493337,-0.156917605694622,-0.16624449636122,-0.202225745340893,-0.221590218643895,-0.228922503001985,-0.227082214343803
1.026,-38.4966715157002,-38.2621817387791,-40.4800987911163,-40.745504130871,-40.0854814389235,-38.9178353784016,-37.5213600500512,-37.4167350838779,-36.1441516047833,-39.7181196149236,-38.790672881123,-38.3742632639491,-0.0201868191709218,-0.0395452948877923,-0.0578455994286843,-0.0793996799001086,-0.0990895148478673,-0.1215564974951,-0.157003706014934,-0.166373896391162,-0.202358483421969,-0.221737519048199,-0.22910320203533,-0.227329610960289
1.027,-38.4884502917101,-38.2552391573141,-40.4764868461237,-40.7381685443327,-40.0856462364243,-38.9155847987375,-37.5238876314419,-37.4118425640323,-36.1401471490804,-39.716761973709,-38.784447659209,-38.3593600333902,-0.0202056783964511,-0.039569396487673,-0.0578842263727119,-0.0794673230832207,-0.0991638491803429,-0.121658738799481,-0.157089906769976,-0.166503385473409,-0.202491278872441,-0.221884936363414,-0.229283979503689,-0.22757705057978
1.028,-38.4802374641275,-38.2483046781481,-40.472881635033,-40.7308375351083,-40.0858217284926,-38.9133336621089,-37.5263897668737,-37.406931364386,-36.1360612731123,-39.715258627743,-38.7780647273455,-38.3444618071395,-0.0202245463573057,-0.0395935209196335,-0.0579228879075806,-0.0795350071392384,-0.0992382481582012,-0.121761043321716,-0.157176207969088,-0.166632963505545,-0.202624131539735,-0.222032470521236,-0.22946483541063,-0.227824533005224
1.029,-38.4720330190712,-38.2413782900189,-40.4692831564495,-40.7235110924931,-40.08600789172,-38.9110819162367,-37.5288664039907,-37.4020014425574,-36.1318939081337,-39.7136097127653,-38.7715250151575,-38.3295685850488,-0.0202434230366795,-0.0396176681814654,-0.057961584024659,-0.0796027320200559,-0.0993127117584357,-0.12186341097706,-0.15726260962146,-0.166762630385082,-0.202757041271349,-0.222180121453081,-0.229645769758957,-0.228072058039939
1.03,-38.4638369426983,-38.23445998169,-40.4656914089664,-40.7161892057985,-40.0862047025494,-38.9088295087126,-37.5313174906486,-37.3970527566246,-36.1276449955596,-39.7118153794116,-38.7648294682495,-38.3146803671132,-0.0202623084177916,-0.0396418382709603,-0.0580003147153153,-0.0796704976776033,-0.099387239958008,-0.121965841680767,-0.157349111736117,-0.166892386009481,-0.202890007914869,-0.222327889090096,-0.229826782550716,-0.228319625487623
1.031,-38.4556492212034,-38.2275497419504,-40.4621063911656,-40.7088718643515,-40.0864121372742,-38.9065763869999,-37.5337429749184,-37.3920852651283,-36.1233144869978,-39.7098757931687,-38.7579790478515,-38.2997971534723,-0.0202812024838742,-0.0396660311859091,-0.0580390799709023,-0.0797383040638388,-0.0994618327338687,-0.122068335348121,-0.157435714321932,-0.16702223027615,-0.203023031317965,-0.222475773363154,-0.230007873787198,-0.228567235152348
1.032,-38.4474698408192,-38.220647559615,-40.4585281016171,-40.701559057495,-40.0866301720376,-38.9043224984341,-37.5361428050888,-37.3870989270754,-36.1189023442783,-39.7077911343244,-38.750974730462,-38.2849189444101,-0.0203001052181914,-0.0396902469240987,-0.058077879782769,-0.0798061511307774,-0.0995364900629409,-0.1221708918944,-0.157522417387624,-0.167152163082413,-0.203156111328392,-0.22262377420286,-0.230189043468944,-0.228814886838564
1.033,-38.4392987878159,-38.2137534235243,-40.4549565388798,-40.6942507745875,-40.0868587828313,-38.9020677902234,-37.5385169296696,-37.3820937019424,-36.1144085394788,-39.7055615979124,-38.7438175074874,-38.270045740356,-0.0203190166040199,-0.0397144854833087,-0.0581167141422669,-0.0798740388304445,-0.0996112119221237,-0.1222735112349,-0.157609220941743,-0.167282184325554,-0.20328924779398,-0.222771891539533,-0.23037029159575,-0.229062580351093
1.034,-38.4311360485008,-38.2068673225441,-40.4513917015008,-40.6869470050035,-40.0870979454955,-38.8998122094493,-37.5408652973946,-37.3770695496783,-36.109833054947,-39.7031873936526,-38.7365083848795,-38.2551775418856,-0.0203379366246641,-0.0397387468613168,-0.0581555830407174,-0.0799419671149212,-0.0996859982882945,-0.12237619328493,-0.157696124992691,-0.167412293902785,-0.203422440562657,-0.222920125303233,-0.230551618166671,-0.229310315495129
1.035,-38.4229816092189,-38.1999892455659,-40.447833588016,-40.6796477381331,-40.0873476357172,-38.897555703067,-37.5431878572246,-37.3720264307081,-36.1051758833199,-39.7006687458862,-38.7290483827698,-38.2403143497211,-0.020356865263442,-0.039763031055896,-0.0581944864694598,-0.0800099359363178,-0.099760849138308,-0.122478937959808,-0.157783129548705,-0.167542491711264,-0.203555689482424,-0.223068475423739,-0.230733023180015,-0.229558092076242
1.036,-38.4148354563522,-38.1931191815065,-40.4442821969498,-40.6723529633824,-40.0876078290302,-38.8952982179062,-37.5454845583505,-37.3669643059359,-36.1004370275395,-39.6980058935063,-38.7214385351024,-38.2254561647322,-0.0203758025036953,-0.0397873380648137,-0.0582334244198064,-0.0800779452467777,-0.0998357644490046,-0.122581745174869,-0.157870234617872,-0.167672777648082,-0.203688994401372,-0.223216941830552,-0.230914506633365,-0.229805909900365
1.037,-38.4066975763195,-38.1862571193082,-40.4407375268155,-40.665062670173,-40.0878785008136,-38.8930397006715,-37.5477553501963,-37.3618831367482,-36.0956165008647,-39.6951990898837,-38.7136798892639,-38.2106029879365,-0.0203947483287912,-0.0398116678858402,-0.0582723968830765,-0.0801459949984863,-0.0999107441971836,-0.122684614845455,-0.157957440208101,-0.167803151610278,-0.203822355167681,-0.2233655244529,-0.231096068523573,-0.230053768773811
1.038,-38.3985679555766,-38.1794030479383,-40.4371995761151,-40.6577768479424,-40.0881596262914,-38.8907800979431,-37.5500001824222,-37.3567828850168,-36.0907143268806,-39.6922486027875,-38.7057735057129,-38.1957548205006,-0.0204137027221119,-0.0398360205167346,-0.0583114038505752,-0.0802140851436657,-0.0999857883596371,-0.122787546886921,-0.158044746327161,-0.167933613494822,-0.203955771629609,-0.223514223219739,-0.231277708846758,-0.230301668503261
1.039,-38.3904465806161,-38.1725569563896,-40.4336683433394,-40.6504954861439,-40.0884511805313,-38.8885193561776,-37.5522190049275,-37.3516635131024,-36.0857305395035,-39.689154714302,-38.6977204576068,-38.1809116637405,-0.0204326656670657,-0.0398603959552569,-0.058350445313599,-0.0802822156345743,-0.100060896913129,-0.122890541214636,-0.158132152982655,-0.168064163198631,-0.204089243635506,-0.223663038059743,-0.231459427598318,-0.230549608895755
1.04,-38.3823334379668,-38.1657188336799,-40.4301438269684,-40.6432185742465,-40.0887531384444,-38.8862574217082,-37.5544117678537,-37.3465249838572,-36.0806651829835,-39.6859177207381,-38.6895218304282,-38.1660735191223,-0.0204516371470761,-0.0398847941991596,-0.0583895212634437,-0.0803503864235016,-0.100136069834403,-0.122993597743983,-0.158219660182022,-0.168194800618562,-0.204222771033807,-0.223811968901319,-0.231641224772939,-0.230797589758709
1.041,-38.3742285141942,-38.1588886688521,-40.4266260254707,-40.6359461017352,-40.0890654747837,-38.8839942407457,-37.5565784215875,-37.3413672606282,-36.0755183119024,-39.6825379325406,-38.6811787216102,-38.1512403882631,-0.0204706171455938,-0.0399092152461914,-0.0584286316913919,-0.0804185974627819,-0.100211307100178,-0.123096716390358,-0.158307267932534,-0.168325525651405,-0.204356353673029,-0.223961015672584,-0.231823100364577,-0.23104561089991
